reg[0x0000] = 0x0042FA05
reg[0x0004] = 0x000005C2
reg[0x0008] = 0x10020001
reg[0x000C] = 0x00000021
reg[0x0010] = 0x80070B08
reg[0x0014] = 0x00000808
reg[0x0018] = 0x00000000
reg[0x001C] = 0x00000000
reg[0x0020] = 0x00000000
reg[0x0024] = 0x00000000
reg[0x0028] = 0x00000000
reg[0x002C] = 0x00000000
reg[0x0030] = 0x00000000
reg[0x0034] = 0x00000000
reg[0x0038] = 0x00000000
reg[0x003C] = 0x00000000
reg[0x0040] = 0xBA5186A3
reg[0x0044] = 0x6319B7A7
reg[0x0048] = 0xD84EB871
reg[0x004C] = 0xFC4CAC56
reg[0x0050] = 0x9ED24872
reg[0x0054] = 0x8162D268
reg[0x0058] = 0x40CA7DFF
reg[0x005C] = 0xB19A5E2C
reg[0x0060] = 0x7E0EA8E5
reg[0x0064] = 0x3980F319
reg[0x0068] = 0xE9EE3408
reg[0x006C] = 0xCCCDE89B
reg[0x0070] = 0x7B9B39E9
reg[0x0074] = 0xA89C2867
reg[0x0078] = 0x294CCABF
reg[0x007C] = 0x21D57F24
reg[0x0080] = 0x00000000
reg[0x0084] = 0x00000000
reg[0x0088] = 0x00000000
reg[0x008C] = 0x00000000
reg[0x0090] = 0x00000000
reg[0x0094] = 0x00000000
reg[0x0098] = 0x00000008
reg[0x009C] = 0x035B0800
reg[0x00A0] = 0x1838FFE0
reg[0x00A4] = 0x00000000
reg[0x00A8] = 0x00000000
reg[0x00AC] = 0x00000000
reg[0x00B0] = 0x00000000
reg[0x00B4] = 0x00000000
reg[0x00B8] = 0x00000000
reg[0x00BC] = 0x00000000
reg[0x00C0] = 0x00000000
reg[0x00C4] = 0x00000000
reg[0x00C8] = 0x00000000
reg[0x00CC] = 0x00000000
reg[0x00D0] = 0x00000000
reg[0x00D4] = 0x00000000
reg[0x00D8] = 0x00000000
reg[0x00DC] = 0x00000000
reg[0x00E0] = 0x00000000
reg[0x00E4] = 0x00000000
reg[0x00E8] = 0x00000000
reg[0x00EC] = 0x00000000
reg[0x00F0] = 0x00000000
reg[0x00F4] = 0x00000000
reg[0x00F8] = 0x00000000
reg[0x00FC] = 0x00000000
reg[0x0100] = 0x01000040
reg[0x0104] = 0x00010011
reg[0x0108] = 0x00000006
reg[0x010C] = 0x00000000
reg[0x0110] = 0x00000000
reg[0x0114] = 0x00000000
reg[0x0118] = 0x00000000
reg[0x011C] = 0x00000000
reg[0x0120] = 0x00000001
reg[0x0124] = 0x00000190
reg[0x0128] = 0x00000000
reg[0x012C] = 0x00000000
reg[0x0130] = 0x00000000
reg[0x0134] = 0x00002000
reg[0x0138] = 0x00000000
reg[0x013C] = 0x00000000
reg[0x0140] = 0x02080001
reg[0x0144] = 0x40000480
reg[0x0148] = 0x00000047
reg[0x014C] = 0x00000000
reg[0x0150] = 0x00000000
reg[0x0154] = 0x00000000
reg[0x0158] = 0x8F848000
reg[0x015C] = 0x00000000
reg[0x0160] = 0x00001010
reg[0x0164] = 0x00000000
reg[0x0168] = 0x00000000
reg[0x016C] = 0x00000000
reg[0x0170] = 0x28970003
reg[0x0174] = 0x00000000
reg[0x0178] = 0x00000000
reg[0x017C] = 0x00000000
reg[0x0180] = 0x00000001
reg[0x0184] = 0x80000C05
reg[0x0188] = 0x00000000
reg[0x018C] = 0x00000000
reg[0x0190] = 0x00000000
reg[0x0194] = 0x00000000
reg[0x0198] = 0x00000000
reg[0x019C] = 0x00000000
reg[0x01A0] = 0x00000000
reg[0x01A4] = 0x003D3120
reg[0x01A8] = 0x0000000A
reg[0x01AC] = 0x00000000
reg[0x01B0] = 0x00000000
reg[0x01B4] = 0x00000000
reg[0x01B8] = 0x00000000
reg[0x01BC] = 0x00000000
reg[0x01C0] = 0x00800080
reg[0x01C4] = 0x00000000
reg[0x01C8] = 0x00000000
reg[0x01CC] = 0x00000000
reg[0x01D0] = 0x00000000
reg[0x01D4] = 0x00000000
reg[0x01D8] = 0x00000000
reg[0x01DC] = 0x00000000
reg[0x01E0] = 0x00000000
reg[0x01E4] = 0x00000000
reg[0x01E8] = 0x00000000
reg[0x01EC] = 0x00000000
reg[0x01F0] = 0x00000000
reg[0x01F4] = 0x00000000
reg[0x01F8] = 0x00000000
reg[0x01FC] = 0x00000000
